Using: /cad/synopsys/Hspice/G-2012.06/hspice/linux/hspice gummel_nmos.sp
 ****** HSPICE -- G-2012.06 32-BIT (May 27 2012) RHEL32 ******                  
  Copyright (C) 2012 Synopsys, Inc. All Rights Reserved.                        
  Unpublished-rights reserved under US copyright laws.
  This program is protected by law and is subject to the
  terms and conditions of the license agreement from Synopsys.
  Use of this program is your acceptance to be bound by the
  license agreement. HSPICE is the trademark of Synopsys, Inc.
  Input File: gummel_nmos.sp                                                    
  Command line options: gummel_nmos.sp
 lic: No 'setenv LM_LICENSE_FILE' in current environment' 
 lic:  
 lic: FLEXlm: v10.8 
 lic: USER:   agarwalh             HOSTNAME: xcel1.vlsi.iitk.ac.in 
 lic: HOSTID: 0008a1953eea         PID:      805 
 lic: Using FLEXlm license file: 
 lic: 27000@xcel0 
 lic: Checkout 1 hspice 
 lic: License/Maintenance for hspice will expire on 15-jun-2013/2011.09 
 lic: 1(in_use)/5(total) FLOATING license(s) on SERVER xcel0 
 lic:   
 Init: read install configuration file: /cad/synopsys/Hspice/G-2012.06/hspice/meta.cfg


 --------------------------------------------------------
|                                                        |
|          Synopsys Unified Verilog-A (pVA v2.0)         |
|                                                        |
|           Machine Name: xcel1.vlsi.iitk.ac.in          |
| Copyright (c) 2011 Synopsys Inc., All Rights Reserved. |
|                                                        |
 --------------------------------------------------------

libepva built by pvamgr synmake_pva_build  on Tue May  1 20:03:16 PDT 2012
HSP_HOME:   /cad/synopsys/Hspice/G-2012.06/hspice
HSP_ARCH:   linux
HSP_GCC :   /cad/synopsys/Hspice/G-2012.06/hspice/GNU/amd64/gcc-4.5.2-static/bin/gcc -m32 
HSP_GCC_VER:   4.5.2
Working-Dir: /users/phd/agarwalh/synopsys_designs/BSIM6/QA/BSIM6 Release/Release_5_May
Args:        -p hsp -t spi -f gummel_nmos.pvadir/pvaHDL.lis -o gummel_nmos.pvadir 


Begin of pVA compiling on Sun May  5 21:44:02 2013

Parsing './bsim6.va'
Parsing include file '/cad/synopsys/Hspice/G-2012.06/hspice/include/constants.vams'
Parsing include file '/cad/synopsys/Hspice/G-2012.06/hspice/include/disciplines.vams'

End of pVA compiling on Sun May  5 21:44:02 2013


End of build pVA DB on Sun May  5 21:44:02 2013

*pvaI* Module (bsim6): 4 unexpanded port, 0 init, 2191 behav, 65 contrib, 43/2272 expr(s)
*pvaI* Resizing DB size for v count = 1
*pvaI*        Has DIS (SB), 3 afCount
*pvaI*        0 const-G and 0 const-C, Has switch branch.
*pvaI* Module (bsim6): generated 7 flow node(s) during compilation.

End of pVA genC on Sun May  5 21:44:04 2013

*pvaI* #### Total 316 line-size(s), 43 expr(s), 65 contr(s), 0 init(s), 2191 behav(s), 4 port(s)

Generating gummel_nmos.pvadir/pvaRTL_linux.so


End of submitting pVA gummel_nmos.pvadir/pvaRTL.mak on Sun May  5 21:44:14 2013


End of pVA elaboration on Sun May  5 21:44:14 2013

 Loading pVA library gummel_nmos.pvadir/pvaRTL_linux.so...
1****** HSPICE -- G-2012.06 32-BIT (May 27 2012) RHEL32 ******                  
 ******  
 *sample netlist for bsim6.0

  ******  circuit name directory
 circuit number to circuit name directory
   number circuitname                     definition         multiplier
        0 main circuit
        1 x1.                             bsim6(va)          1.00 
*pvaI* Creating Verilog-A module 'bsim6' for X1
  
      
 *****************************************************************
 ******  option summary
 ******
 runlvl  = 3         bypass  = 2         
  Opening plot unit= 15
 file=gummel_nmos.pa0                                                          

 ******  
 *sample netlist for bsim6.0

  ******  dc transfer curves tnom=  25.000 temp=  25.000 *****

   *** source        0:vgate =    0.            ***

x

        volt    param        param        param        param      
                    ids          gx           gx2          gx3    
   -0.10000    -1.947e-11      0.           0.           0.       
 -9.9000e-02   -1.874e-11   -1.947e-08      0.           0.       
 -9.8000e-02   -1.803e-11    7.346e-10   -1.947e-05      0.       
 -9.7000e-02   -1.735e-11    7.069e-10    2.020e-05   -1.947e-02  
 -9.6000e-02   -1.669e-11    6.803e-10   -2.768e-08    3.968e-02  
 -9.5000e-02   -1.606e-11    6.547e-10   -2.663e-08   -2.023e-02  
 -9.4000e-02   -1.546e-11    6.300e-10   -2.563e-08    1.045e-06  
 -9.3000e-02   -1.487e-11    6.063e-10   -2.466e-08    1.006e-06  
 -9.2000e-02   -1.431e-11    5.834e-10   -2.373e-08    9.677e-07  
 -9.1000e-02   -1.377e-11    5.615e-10   -2.283e-08    9.313e-07  
 -9.0000e-02   -1.325e-11    5.403e-10   -2.197e-08    8.963e-07  
 -8.9000e-02   -1.275e-11    5.200e-10   -2.114e-08    8.626e-07  
 -8.8000e-02   -1.227e-11    5.004e-10   -2.034e-08    8.302e-07  
 -8.7000e-02   -1.181e-11    4.816e-10   -1.957e-08    7.989e-07  
 -8.6000e-02   -1.136e-11    4.635e-10   -1.883e-08    7.689e-07  
 -8.5000e-02   -1.093e-11    4.460e-10   -1.812e-08    7.400e-07  
 -8.4000e-02   -1.052e-11    4.293e-10   -1.743e-08    7.122e-07  
 -8.3000e-02   -1.012e-11    4.131e-10   -1.677e-08    6.854e-07  
 -8.2000e-02   -9.738e-12    3.976e-10   -1.614e-08    6.597e-07  
 -8.1000e-02   -9.370e-12    3.827e-10   -1.553e-08    6.349e-07  
 -8.0000e-02   -9.015e-12    3.683e-10   -1.494e-08    6.111e-07  
 -7.9000e-02   -8.674e-12    3.544e-10   -1.437e-08    5.881e-07  
 -7.8000e-02   -8.346e-12    3.411e-10   -1.383e-08    5.660e-07  
 -7.7000e-02   -8.030e-12    3.283e-10   -1.331e-08    5.447e-07  
 -7.6000e-02   -7.726e-12    3.160e-10   -1.280e-08    5.243e-07  
 -7.5000e-02   -7.433e-12    3.042e-10   -1.232e-08    5.046e-07  
 -7.4000e-02   -7.151e-12    2.928e-10   -1.185e-08    4.856e-07  
 -7.3000e-02   -6.880e-12    2.818e-10   -1.140e-08    4.674e-07  
 -7.2000e-02   -6.619e-12    2.713e-10   -1.097e-08    4.498e-07  
 -7.1000e-02   -6.367e-12    2.611e-10   -1.055e-08    4.329e-07  
 -7.0000e-02   -6.125e-12    2.514e-10   -1.015e-08    4.167e-07  
 -6.9000e-02   -5.892e-12    2.420e-10   -9.762e-09    4.010e-07  
 -6.8000e-02   -5.668e-12    2.329e-10   -9.390e-09    3.859e-07  
 -6.7000e-02   -5.452e-12    2.242e-10   -9.033e-09    3.715e-07  
 -6.6000e-02   -5.244e-12    2.159e-10   -8.689e-09    3.575e-07  
 -6.5000e-02   -5.044e-12    2.078e-10   -8.358e-09    3.441e-07  
 -6.4000e-02   -4.852e-12    2.001e-10   -8.039e-09    3.312e-07  
 -6.3000e-02   -4.666e-12    1.927e-10   -7.732e-09    3.188e-07  
 -6.2000e-02   -4.487e-12    1.855e-10   -7.437e-09    3.068e-07  
 -6.1000e-02   -4.315e-12    1.786e-10   -7.152e-09    2.953e-07  
 -6.0000e-02   -4.150e-12    1.720e-10   -6.879e-09    2.843e-07  
 -5.9000e-02   -3.990e-12    1.657e-10   -6.615e-09    2.737e-07  
 -5.8000e-02   -3.836e-12    1.596e-10   -6.362e-09    2.635e-07  
 -5.7000e-02   -3.688e-12    1.537e-10   -6.117e-09    2.536e-07  
 -5.6000e-02   -3.546e-12    1.480e-10   -5.882e-09    2.442e-07  
 -5.5000e-02   -3.409e-12    1.426e-10   -5.656e-09    2.351e-07  
 -5.4000e-02   -3.276e-12    1.374e-10   -5.438e-09    2.264e-07  
 -5.3000e-02   -3.149e-12    1.323e-10   -5.228e-09    2.181e-07  
 -5.2000e-02   -3.026e-12    1.275e-10   -5.025e-09    2.100e-07  
 -5.1000e-02   -2.907e-12    1.229e-10   -4.831e-09    2.023e-07  
 -5.0000e-02   -2.793e-12    1.184e-10   -4.643e-09    1.949e-07  
 -4.9000e-02   -2.683e-12    1.141e-10   -4.462e-09    1.877e-07  
 -4.8000e-02   -2.577e-12    1.100e-10   -4.288e-09    1.809e-07  
 -4.7000e-02   -2.475e-12    1.060e-10   -4.120e-09    1.743e-07  
 -4.6000e-02   -2.377e-12    1.022e-10   -3.958e-09    1.680e-07  
 -4.5000e-02   -2.282e-12    9.857e-11   -3.802e-09    1.619e-07  
 -4.4000e-02   -2.190e-12    9.507e-11   -3.651e-09    1.561e-07  
 -4.3000e-02   -2.101e-12    9.170e-11   -3.506e-09    1.505e-07  
 -4.2000e-02   -2.016e-12    8.847e-11   -3.366e-09    1.451e-07  
 -4.1000e-02   -1.934e-12    8.537e-11   -3.231e-09    1.400e-07  
 -4.0000e-02   -1.854e-12    8.239e-11   -3.101e-09    1.350e-07  
 -3.9000e-02   -1.777e-12    7.954e-11   -2.975e-09    1.303e-07  
 -3.8000e-02   -1.703e-12    7.680e-11   -2.854e-09    1.257e-07  
 -3.7000e-02   -1.631e-12    7.418e-11   -2.737e-09    1.214e-07  
 -3.6000e-02   -1.562e-12    7.166e-11   -2.623e-09    1.172e-07  
 -3.5000e-02   -1.495e-12    6.926e-11   -2.514e-09    1.131e-07  
 -3.4000e-02   -1.430e-12    6.695e-11   -2.409e-09    1.093e-07  
 -3.3000e-02   -1.368e-12    6.474e-11   -2.306e-09    1.056e-07  
 -3.2000e-02   -1.307e-12    6.263e-11   -2.208e-09    1.021e-07  
 -3.1000e-02   -1.249e-12    6.061e-11   -2.112e-09    9.869e-08  
 -3.0000e-02   -1.192e-12    5.868e-11   -2.020e-09    9.545e-08  
 -2.9000e-02   -1.137e-12    5.683e-11   -1.931e-09    9.236e-08  
 -2.8000e-02   -1.083e-12    5.507e-11   -1.844e-09    8.939e-08  
 -2.7000e-02   -1.031e-12    5.340e-11   -1.760e-09    8.656e-08  
 -2.6000e-02   -9.812e-13    5.180e-11   -1.679e-09    8.385e-08  
 -2.5000e-02   -9.323e-13    5.027e-11   -1.600e-09    8.127e-08  
 -2.4000e-02   -8.849e-13    4.882e-11   -1.524e-09    7.880e-08  
 -2.3000e-02   -8.388e-13    4.745e-11   -1.449e-09    7.645e-08  
 -2.2000e-02   -7.939e-13    4.614e-11   -1.377e-09    7.421e-08  
 -2.1000e-02   -7.501e-13    4.490e-11   -1.307e-09    7.208e-08  
 -2.0000e-02   -7.075e-13    4.373e-11   -1.239e-09    7.005e-08  
 -1.9000e-02   -6.659e-13    4.262e-11   -1.173e-09    6.813e-08  
 -1.8000e-02   -6.254e-13    4.157e-11   -1.108e-09    6.631e-08  
 -1.7000e-02   -5.857e-13    4.059e-11   -1.045e-09    6.458e-08  
 -1.6000e-02   -5.469e-13    3.966e-11   -9.839e-10    6.295e-08  
 -1.5000e-02   -5.089e-13    3.880e-11   -9.240e-10    6.141e-08  
 -1.4000e-02   -4.717e-13    3.799e-11   -8.654e-10    5.996e-08  
 -1.3000e-02   -4.351e-13    3.724e-11   -8.081e-10    5.860e-08  
 -1.2000e-02   -3.992e-13    3.654e-11   -7.519e-10    5.732e-08  
 -1.1000e-02   -3.639e-13    3.590e-11   -6.969e-10    5.613e-08  
 -1.0000e-02   -3.291e-13    3.531e-11   -6.429e-10    5.502e-08  
 -9.0000e-03   -2.949e-13    3.477e-11   -5.899e-10    5.399e-08  
 -8.0000e-03   -2.610e-13    3.429e-11   -5.377e-10    5.304e-08  
 -7.0000e-03   -2.275e-13    3.385e-11   -4.863e-10    5.217e-08  
 -6.0000e-03   -1.944e-13    3.346e-11   -4.357e-10    5.138e-08  
 -5.0000e-03   -1.616e-13    3.313e-11   -3.857e-10    5.066e-08  
 -4.0000e-03   -1.290e-13    3.284e-11   -3.362e-10    5.001e-08  
 -3.0000e-03   -9.657e-14    3.260e-11   -2.873e-10    4.944e-08  
 -2.0000e-03   -6.430e-14    3.241e-11   -2.387e-10    4.895e-08  
 -1.0000e-03   -3.213e-14    3.227e-11   -1.906e-10    4.852e-08  
    0.            0.         3.217e-11   -1.427e-10    4.817e-08  
  1.0000e-03    3.213e-14    3.213e-11   -9.501e-11    4.789e-08  
  2.0000e-03    6.430e-14    3.213e-11   -4.747e-11    4.768e-08  
  3.0000e-03    9.657e-14    3.217e-11      0.         4.754e-08  
  4.0000e-03    1.290e-13    3.227e-11    4.747e-11    4.747e-08  
  5.0000e-03    1.616e-13    3.241e-11    9.501e-11    4.747e-08  
  6.0000e-03    1.944e-13    3.260e-11    1.427e-10    4.754e-08  
  7.0000e-03    2.275e-13    3.284e-11    1.906e-10    4.768e-08  
  8.0000e-03    2.610e-13    3.313e-11    2.387e-10    4.789e-08  
  9.0000e-03    2.949e-13    3.346e-11    2.873e-10    4.817e-08  
  1.0000e-02    3.291e-13    3.385e-11    3.362e-10    4.852e-08  
  1.1000e-02    3.639e-13    3.429e-11    3.857e-10    4.895e-08  
  1.2000e-02    3.992e-13    3.477e-11    4.357e-10    4.944e-08  
  1.3000e-02    4.351e-13    3.531e-11    4.863e-10    5.001e-08  
  1.4000e-02    4.717e-13    3.590e-11    5.377e-10    5.066e-08  
  1.5000e-02    5.089e-13    3.654e-11    5.899e-10    5.138e-08  
  1.6000e-02    5.469e-13    3.724e-11    6.429e-10    5.217e-08  
  1.7000e-02    5.857e-13    3.799e-11    6.969e-10    5.304e-08  
  1.8000e-02    6.254e-13    3.880e-11    7.519e-10    5.399e-08  
  1.9000e-02    6.659e-13    3.966e-11    8.081e-10    5.502e-08  
  2.0000e-02    7.075e-13    4.059e-11    8.654e-10    5.613e-08  
  2.1000e-02    7.501e-13    4.157e-11    9.240e-10    5.732e-08  
  2.2000e-02    7.939e-13    4.262e-11    9.839e-10    5.860e-08  
  2.3000e-02    8.388e-13    4.373e-11    1.045e-09    5.996e-08  
  2.4000e-02    8.849e-13    4.490e-11    1.108e-09    6.141e-08  
  2.5000e-02    9.323e-13    4.614e-11    1.173e-09    6.295e-08  
  2.6000e-02    9.812e-13    4.745e-11    1.239e-09    6.458e-08  
  2.7000e-02    1.031e-12    4.882e-11    1.307e-09    6.631e-08  
  2.8000e-02    1.083e-12    5.027e-11    1.377e-09    6.813e-08  
  2.9000e-02    1.137e-12    5.180e-11    1.449e-09    7.005e-08  
  3.0000e-02    1.192e-12    5.340e-11    1.524e-09    7.208e-08  
  3.1000e-02    1.249e-12    5.507e-11    1.600e-09    7.421e-08  
  3.2000e-02    1.307e-12    5.683e-11    1.679e-09    7.645e-08  
  3.3000e-02    1.368e-12    5.868e-11    1.760e-09    7.880e-08  
  3.4000e-02    1.430e-12    6.061e-11    1.844e-09    8.127e-08  
  3.5000e-02    1.495e-12    6.263e-11    1.931e-09    8.385e-08  
  3.6000e-02    1.562e-12    6.474e-11    2.020e-09    8.656e-08  
  3.7000e-02    1.631e-12    6.695e-11    2.112e-09    8.939e-08  
  3.8000e-02    1.703e-12    6.926e-11    2.208e-09    9.236e-08  
  3.9000e-02    1.777e-12    7.166e-11    2.306e-09    9.545e-08  
  4.0000e-02    1.854e-12    7.418e-11    2.409e-09    9.869e-08  
  4.1000e-02    1.934e-12    7.680e-11    2.514e-09    1.021e-07  
  4.2000e-02    2.016e-12    7.954e-11    2.623e-09    1.056e-07  
  4.3000e-02    2.101e-12    8.239e-11    2.737e-09    1.093e-07  
  4.4000e-02    2.190e-12    8.537e-11    2.854e-09    1.131e-07  
  4.5000e-02    2.282e-12    8.847e-11    2.975e-09    1.172e-07  
  4.6000e-02    2.377e-12    9.170e-11    3.101e-09    1.214e-07  
  4.7000e-02    2.475e-12    9.507e-11    3.231e-09    1.257e-07  
  4.8000e-02    2.577e-12    9.857e-11    3.366e-09    1.303e-07  
  4.9000e-02    2.683e-12    1.022e-10    3.506e-09    1.350e-07  
  5.0000e-02    2.793e-12    1.060e-10    3.651e-09    1.400e-07  
  5.1000e-02    2.907e-12    1.100e-10    3.802e-09    1.451e-07  
  5.2000e-02    3.026e-12    1.141e-10    3.958e-09    1.505e-07  
  5.3000e-02    3.149e-12    1.184e-10    4.120e-09    1.561e-07  
  5.4000e-02    3.276e-12    1.229e-10    4.288e-09    1.619e-07  
  5.5000e-02    3.409e-12    1.275e-10    4.462e-09    1.680e-07  
  5.6000e-02    3.546e-12    1.323e-10    4.643e-09    1.743e-07  
  5.7000e-02    3.688e-12    1.374e-10    4.831e-09    1.809e-07  
  5.8000e-02    3.836e-12    1.426e-10    5.025e-09    1.877e-07  
  5.9000e-02    3.990e-12    1.480e-10    5.228e-09    1.949e-07  
  6.0000e-02    4.150e-12    1.537e-10    5.438e-09    2.023e-07  
  6.1000e-02    4.315e-12    1.596e-10    5.656e-09    2.100e-07  
  6.2000e-02    4.487e-12    1.657e-10    5.882e-09    2.181e-07  
  6.3000e-02    4.666e-12    1.720e-10    6.117e-09    2.264e-07  
  6.4000e-02    4.852e-12    1.786e-10    6.362e-09    2.351e-07  
  6.5000e-02    5.044e-12    1.855e-10    6.615e-09    2.442e-07  
  6.6000e-02    5.244e-12    1.927e-10    6.879e-09    2.536e-07  
  6.7000e-02    5.452e-12    2.001e-10    7.152e-09    2.635e-07  
  6.8000e-02    5.668e-12    2.078e-10    7.437e-09    2.737e-07  
  6.9000e-02    5.892e-12    2.159e-10    7.732e-09    2.843e-07  
  7.0000e-02    6.125e-12    2.242e-10    8.039e-09    2.953e-07  
  7.1000e-02    6.367e-12    2.329e-10    8.358e-09    3.068e-07  
  7.2000e-02    6.619e-12    2.420e-10    8.689e-09    3.188e-07  
  7.3000e-02    6.880e-12    2.514e-10    9.033e-09    3.312e-07  
  7.4000e-02    7.151e-12    2.611e-10    9.390e-09    3.441e-07  
  7.5000e-02    7.433e-12    2.713e-10    9.762e-09    3.575e-07  
  7.6000e-02    7.726e-12    2.818e-10    1.015e-08    3.715e-07  
  7.7000e-02    8.030e-12    2.928e-10    1.055e-08    3.859e-07  
  7.8000e-02    8.346e-12    3.042e-10    1.097e-08    4.010e-07  
  7.9000e-02    8.674e-12    3.160e-10    1.140e-08    4.167e-07  
  8.0000e-02    9.015e-12    3.283e-10    1.185e-08    4.329e-07  
  8.1000e-02    9.370e-12    3.411e-10    1.232e-08    4.498e-07  
  8.2000e-02    9.738e-12    3.544e-10    1.280e-08    4.674e-07  
  8.3000e-02    1.012e-11    3.683e-10    1.331e-08    4.856e-07  
  8.4000e-02    1.052e-11    3.827e-10    1.383e-08    5.046e-07  
  8.5000e-02    1.093e-11    3.976e-10    1.437e-08    5.243e-07  
  8.6000e-02    1.136e-11    4.131e-10    1.494e-08    5.447e-07  
  8.7000e-02    1.181e-11    4.293e-10    1.553e-08    5.660e-07  
  8.8000e-02    1.227e-11    4.460e-10    1.614e-08    5.881e-07  
  8.9000e-02    1.275e-11    4.635e-10    1.677e-08    6.111e-07  
  9.0000e-02    1.325e-11    4.816e-10    1.743e-08    6.349e-07  
  9.1000e-02    1.377e-11    5.004e-10    1.812e-08    6.597e-07  
  9.2000e-02    1.431e-11    5.200e-10    1.883e-08    6.854e-07  
  9.3000e-02    1.487e-11    5.403e-10    1.957e-08    7.122e-07  
  9.4000e-02    1.546e-11    5.615e-10    2.034e-08    7.400e-07  
  9.5000e-02    1.606e-11    5.834e-10    2.114e-08    7.689e-07  
  9.6000e-02    1.669e-11    6.063e-10    2.197e-08    7.989e-07  
  9.7000e-02    1.735e-11    6.300e-10    2.283e-08    8.302e-07  
  9.8000e-02    1.803e-11    6.547e-10    2.373e-08    8.626e-07  
  9.9000e-02    1.874e-11    6.803e-10    2.466e-08    8.963e-07  
    0.10000     1.947e-11    7.069e-10    2.563e-08    9.313e-07  
y
x

        volt    param      
                    gx4    
   -0.10000       0.       
 -9.9000e-02      0.       
 -9.8000e-02      0.       
 -9.7000e-02      0.       
 -9.6000e-02    -19.4703   
 -9.5000e-02     59.1455   
 -9.4000e-02    -59.9078   
 -9.3000e-02     20.2336   
 -9.2000e-02   -3.932e-05  
 -9.1000e-02   -3.784e-05  
 -9.0000e-02   -3.641e-05  
 -8.9000e-02   -3.503e-05  
 -8.8000e-02   -3.371e-05  
 -8.7000e-02   -3.244e-05  
 -8.6000e-02   -3.121e-05  
 -8.5000e-02   -3.003e-05  
 -8.4000e-02   -2.890e-05  
 -8.3000e-02   -2.781e-05  
 -8.2000e-02   -2.676e-05  
 -8.1000e-02   -2.575e-05  
 -8.0000e-02   -2.478e-05  
 -7.9000e-02   -2.385e-05  
 -7.8000e-02   -2.295e-05  
 -7.7000e-02   -2.209e-05  
 -7.6000e-02   -2.126e-05  
 -7.5000e-02   -2.046e-05  
 -7.4000e-02   -1.969e-05  
 -7.3000e-02   -1.896e-05  
 -7.2000e-02   -1.824e-05  
 -7.1000e-02   -1.756e-05  
 -7.0000e-02   -1.690e-05  
 -6.9000e-02   -1.627e-05  
 -6.8000e-02   -1.565e-05  
 -6.7000e-02   -1.506e-05  
 -6.6000e-02   -1.450e-05  
 -6.5000e-02   -1.395e-05  
 -6.4000e-02   -1.342e-05  
 -6.3000e-02   -1.291e-05  
 -6.2000e-02   -1.242e-05  
 -6.1000e-02   -1.194e-05  
 -6.0000e-02   -1.149e-05  
 -5.9000e-02   -1.104e-05  
 -5.8000e-02   -1.062e-05  
 -5.7000e-02   -1.021e-05  
 -5.6000e-02   -9.814e-06  
 -5.5000e-02   -9.433e-06  
 -5.4000e-02   -9.066e-06  
 -5.3000e-02   -8.713e-06  
 -5.2000e-02   -8.372e-06  
 -5.1000e-02   -8.044e-06  
 -5.0000e-02   -7.729e-06  
 -4.9000e-02   -7.425e-06  
 -4.8000e-02   -7.132e-06  
 -4.7000e-02   -6.851e-06  
 -4.6000e-02   -6.580e-06  
 -4.5000e-02   -6.319e-06  
 -4.4000e-02   -6.068e-06  
 -4.3000e-02   -5.826e-06  
 -4.2000e-02   -5.594e-06  
 -4.1000e-02   -5.370e-06  
 -4.0000e-02   -5.154e-06  
 -3.9000e-02   -4.946e-06  
 -3.8000e-02   -4.746e-06  
 -3.7000e-02   -4.553e-06  
 -3.6000e-02   -4.368e-06  
 -3.5000e-02   -4.189e-06  
 -3.4000e-02   -4.016e-06  
 -3.3000e-02   -3.849e-06  
 -3.2000e-02   -3.689e-06  
 -3.1000e-02   -3.534e-06  
 -3.0000e-02   -3.384e-06  
 -2.9000e-02   -3.239e-06  
 -2.8000e-02   -3.099e-06  
 -2.7000e-02   -2.964e-06  
 -2.6000e-02   -2.834e-06  
 -2.5000e-02   -2.707e-06  
 -2.4000e-02   -2.584e-06  
 -2.3000e-02   -2.466e-06  
 -2.2000e-02   -2.351e-06  
 -2.1000e-02   -2.239e-06  
 -2.0000e-02   -2.131e-06  
 -1.9000e-02   -2.025e-06  
 -1.8000e-02   -1.923e-06  
 -1.7000e-02   -1.824e-06  
 -1.6000e-02   -1.727e-06  
 -1.5000e-02   -1.632e-06  
