 ****** HSPICE -- G-2012.06 32-BIT (May 27 2012) RHEL32 ******                  
  Copyright (C) 2012 Synopsys, Inc. All Rights Reserved.                        
  Unpublished-rights reserved under US copyright laws.
  This program is protected by law and is subject to the
  terms and conditions of the license agreement from Synopsys.
  Use of this program is your acceptance to be bound by the
  license agreement. HSPICE is the trademark of Synopsys, Inc.
  Input File: inverter_tr.sp                                                    
  Command line options: -hdlpath ../code -i inverter_tr.sp -o inverter_tr
 lic:  
 lic: FLEXlm: v10.8 
 lic: USER:   navidp               HOSTNAME: bwrcrdsl-2.EECS.Berkeley.EDU 
 lic: HOSTID:                      PID:      26678 
 lic: Using FLEXlm license file: 
 lic: 1701@sunv40z-1.eecs.berkeley.edu 
 lic: Checkout 1 hspice 
 lic: License/Maintenance for hspice will expire on 19-dec-2013/2013.03 
 lic: 1(in_use)/50(total) FLOATING license(s) on SERVER sunv40z-1.eecs.berkeley.
 lic:   
 Init: read install configuration file: /tools/synopsys/hspice/G-2012.06/hspice/meta.cfg
 Loading pVA library inverter_tr.pvadir/pvaRTL_linux.so...
1****** HSPICE -- G-2012.06 32-BIT (May 27 2012) RHEL32 ******                  
 ******  
 *sample netlist for bsimsoi -- tanvir morshed 2010

  ******  circuit name directory
 circuit number to circuit name directory
   number circuitname                     definition         multiplier
        0 main circuit
        1 xn0.                            bsimsoi(va)        1.00 
        2 xp0.                            bsimsoi(va)        1.00 
  **info** (inverter_tr.sp:14) DC voltage reset to initial transient source value              in source        0:vgate               new dc=  0.0000D+00
 **info** *pvaI* Creating Verilog-A module 'bsimsoi' for XP0

 **info** *pvaI* Creating Verilog-A module 'bsimsoi' for XN0

  
      
 *****************************************************************
 ******  option summary
 ******
 runlvl  = 3         bypass  = 2         
  Opening plot unit= 15
 file=inverter_tr.pa0                                                          

1****** HSPICE -- G-2012.06 32-BIT (May 27 2012) RHEL32 ******                  
 ******  
 *sample netlist for bsimsoi -- tanvir morshed 2010

  ******  operating point information tnom=  25.000 temp=  25.000 *****
 ***** operating point status is voltage   simulation time is     0.     
    node    =voltage      node    =voltage      node    =voltage

 +0:gate    =   0.      0:out     =   1.5000  0:vd      =   1.5000 
 +0:vs      =   0.     

 ******  
 *sample netlist for bsimsoi -- tanvir morshed 2010

  ******  transient analysis tnom=  25.000 temp=  25.000 *****
x

        time    voltage      voltage    
                   gate          out    
    0.            0.           1.5000   
   10.00000p      0.           1.5000   
   20.00000p      0.           1.5000   
   30.00000p      0.           1.5000   
   40.00000p      0.           1.5000   
   50.00000p      0.           1.5000   
   60.00000p      0.           1.5000   
   70.00000p      0.           1.5000   
   80.00000p      0.           1.5000   
   90.00000p      0.           1.5000   
  100.00000p      0.           1.5000   
  110.00000p    300.0000m      1.5814   
  120.00000p    600.0000m      1.6223   
  130.00000p    900.0000m      1.6315   
  140.00000p      1.2000     938.6345m  
  150.00000p      1.5000     213.2707m  
  160.00000p      1.5000      68.4336m  
  170.00000p      1.5000      20.0067m  
  180.00000p      1.5000       6.1996m  
  190.00000p      1.5000       1.3930m  
  200.00000p      1.5000     356.2497u  
  210.00000p      1.5000      36.6071u  
  220.00000p      1.5000      23.8648u  
  230.00000p      1.5000      11.1226u  
  240.00000p      1.5000       7.9218u  
  250.00000p      1.5000       4.9513u  
  260.00000p      1.5000       1.9809u  
  270.00000p      1.5000    -989.5544n  
  280.00000p      1.5000      -3.0827u  
  290.00000p      1.5000      -1.9690u  
  300.00000p      1.5000    -855.3338n  
  310.00000p      1.5000       0.       
  320.00000p      1.5000       1.3720u  
  330.00000p      1.5000       2.0534u  
  340.00000p      1.5000       1.1547u  
  350.00000p      1.5000       0.       
  360.00000p      1.2000     -82.1195m  
  370.00000p    900.0000m   -128.2367m  
  380.00000p    600.0000m    266.3186m  
  390.00000p    300.0000m      1.2244   
  400.00000p      0.           1.3514   
  410.00000p      0.           1.4509   
  420.00000p      0.           1.4850   
  430.00000p      0.           1.4961   
  440.00000p      0.           1.4993   
  450.00000p      0.           1.4998   
  460.00000p      0.           1.5000   
  470.00000p      0.           1.5000   
  480.00000p      0.           1.5000   
  490.00000p      0.           1.5000   
  500.00000p      0.           1.5000   
  510.00000p      0.           1.5000   
  520.00000p      0.           1.5000   
  530.00000p      0.           1.5000   
  540.00000p      0.           1.5000   
  550.00000p      0.           1.5000   
  560.00000p      0.           1.5000   
  570.00000p      0.           1.5000   
  580.00000p      0.           1.5000   
  590.00000p      0.           1.5000   
  600.00000p      0.           1.5000   
y
-----------------------------------------------

          ***** job concluded
1****** HSPICE -- G-2012.06 32-BIT (May 27 2012) RHEL32 ******                  
 ******  
 *sample netlist for bsimsoi -- tanvir morshed 2010

  ******  job statistics summary tnom=  25.000 temp=  25.000 *****
  
  
 ******  Machine Information  ******
 CPU:
 model name	: Intel(R) Xeon(R) CPU           E5645  @ 2.40GHz
 cpu MHz	: 2395.000
  
 OS:
 Linux version 2.6.32-358.18.1.el6.x86_64 (mockbuild@x86-003.build.bos.redhat.com) (gcc version 4.4.7 20120313 (Red Hat 4.4.7-3) (GCC) ) #1 SMP Fri Aug 2 17:04:38 EDT 2013


  ******  HSPICE Threads Information  ******

  Command Line Threads Count :     1
  Available CPU Count        :    24
  Actual Threads Count       :     1


  ******  Circuit Statistics  ******
  # nodes       =      25 # elements   =       5
  # resistors   =       0 # capacitors =       0 # inductors   =       0
  # mutual_inds =       0 # vccs       =       0 # vcvs        =       0
  # cccs        =       0 # ccvs       =       0 # volt_srcs   =       3
  # curr_srcs   =       0 # diodes     =       0 # bjts        =       0
  # jfets       =       0 # mosfets    =       0 # U elements  =       0
  # T elements  =       0 # W elements =       0 # B elements  =       0
  # S elements  =       0 # P elements =       0 # va device   =       2
  # vector_srcs =       0 # N elements =       0


  ******  Runtime Statistics (seconds)  ******

  analysis           time    # points   tot. iter  conv.iter
  op point           0.01           1          44
  transient          0.03          61         235          58 rev=         7
  readin             0.05
  errchk             0.06
  setup              0.00
  output             0.00


           peak memory used        110.22 megabytes
           total cpu time            0.15 seconds
           total elapsed time        0.43 seconds
           job started at     12:48:18 11/06/2013
           job ended   at     12:48:19 11/06/2013


 lic: Release hspice token(s) 
 lic: total license checkout elapse time:        0.22(s)
