Using: /cad/synopsys/Hspice/G-2012.06/hspice/linux/hspice idvg_nmos.sp
 ****** HSPICE -- G-2012.06 32-BIT (May 27 2012) RHEL32 ******                  
  Copyright (C) 2012 Synopsys, Inc. All Rights Reserved.                        
  Unpublished-rights reserved under US copyright laws.
  This program is protected by law and is subject to the
  terms and conditions of the license agreement from Synopsys.
  Use of this program is your acceptance to be bound by the
  license agreement. HSPICE is the trademark of Synopsys, Inc.
  Input File: idvg_nmos.sp                                                      
  Command line options: idvg_nmos.sp
 lic: No 'setenv LM_LICENSE_FILE' in current environment' 
 lic:  
 lic: FLEXlm: v10.8 
 lic: USER:   agarwalh             HOSTNAME: xcel1.vlsi.iitk.ac.in 
 lic: HOSTID: 0008a1953eea         PID:      908 
 lic: Using FLEXlm license file: 
 lic: 27000@xcel0 
 lic: Checkout 1 hspice 
 lic: License/Maintenance for hspice will expire on 15-jun-2013/2011.09 
 lic: 1(in_use)/5(total) FLOATING license(s) on SERVER xcel0 
 lic:   
 Init: read install configuration file: /cad/synopsys/Hspice/G-2012.06/hspice/meta.cfg


 --------------------------------------------------------
|                                                        |
|          Synopsys Unified Verilog-A (pVA v2.0)         |
|                                                        |
|           Machine Name: xcel1.vlsi.iitk.ac.in          |
| Copyright (c) 2011 Synopsys Inc., All Rights Reserved. |
|                                                        |
 --------------------------------------------------------

libepva built by pvamgr synmake_pva_build  on Tue May  1 20:03:16 PDT 2012
HSP_HOME:   /cad/synopsys/Hspice/G-2012.06/hspice
HSP_ARCH:   linux
HSP_GCC :   /cad/synopsys/Hspice/G-2012.06/hspice/GNU/amd64/gcc-4.5.2-static/bin/gcc -m32 
HSP_GCC_VER:   4.5.2
Working-Dir: /users/phd/agarwalh/synopsys_designs/BSIM6/QA/BSIM6 Release/Release_5_May
Args:        -p hsp -t spi -f idvg_nmos.pvadir/pvaHDL.lis -o idvg_nmos.pvadir 


Begin of pVA compiling on Sun May  5 21:45:45 2013

Parsing './bsim6.va'
Parsing include file '/cad/synopsys/Hspice/G-2012.06/hspice/include/constants.vams'
Parsing include file '/cad/synopsys/Hspice/G-2012.06/hspice/include/disciplines.vams'

End of pVA compiling on Sun May  5 21:45:45 2013


End of build pVA DB on Sun May  5 21:45:45 2013

*pvaI* Module (bsim6): 4 unexpanded port, 0 init, 2191 behav, 65 contrib, 43/2272 expr(s)
*pvaI* Resizing DB size for v count = 1
*pvaI*        Has DIS (SB), 3 afCount
*pvaI*        0 const-G and 0 const-C, Has switch branch.
*pvaI* Module (bsim6): generated 7 flow node(s) during compilation.

End of pVA genC on Sun May  5 21:45:47 2013

*pvaI* #### Total 316 line-size(s), 43 expr(s), 65 contr(s), 0 init(s), 2191 behav(s), 4 port(s)

Generating idvg_nmos.pvadir/pvaRTL_linux.so


End of submitting pVA idvg_nmos.pvadir/pvaRTL.mak on Sun May  5 21:45:57 2013


End of pVA elaboration on Sun May  5 21:45:57 2013

 Loading pVA library idvg_nmos.pvadir/pvaRTL_linux.so...
1****** HSPICE -- G-2012.06 32-BIT (May 27 2012) RHEL32 ******                  
 ******  
 *sample netlist for bsim6.0

  ******  circuit name directory
 circuit number to circuit name directory
   number circuitname                     definition         multiplier
        0 main circuit
        1 x1.                             bsim6(va)          1.00 
*pvaI* Creating Verilog-A module 'bsim6' for X1
  
      
 *****************************************************************
 ******  option summary
 ******
 runlvl  = 3         bypass  = 2         
  Opening plot unit= 15
 file=idvg_nmos.pa0                                                            

 ******  
 *sample netlist for bsim6.0

  ******  dc transfer curves tnom=  25.000 temp=  25.000 *****

   *** source        0:vb =   -0.3000        ***

x

        volt    param        param        param        current    
                    ids          gm           gm2          vd     
   -1.30000     1.314e-08      0.           0.        -1.314e-08  
   -1.29000     1.281e-08    1.314e-06      0.        -1.281e-08  
   -1.28000     1.248e-08   -3.338e-08    1.314e-04   -1.248e-08  
   -1.27000     1.216e-08   -3.268e-08   -1.347e-04   -1.216e-08  
   -1.26000     1.185e-08   -3.198e-08    7.047e-08   -1.185e-08  
   -1.25000     1.154e-08   -3.130e-08    6.931e-08   -1.154e-08  
   -1.24000     1.124e-08   -3.063e-08    6.817e-08   -1.124e-08  
   -1.23000     1.095e-08   -2.997e-08    6.704e-08   -1.095e-08  
   -1.22000     1.066e-08   -2.932e-08    6.593e-08   -1.066e-08  
   -1.21000     1.038e-08   -2.869e-08    6.482e-08   -1.038e-08  
   -1.20000     1.011e-08   -2.806e-08    6.373e-08   -1.011e-08  
   -1.19000     9.837e-09   -2.744e-08    6.265e-08   -9.837e-09  
   -1.18000     9.575e-09   -2.684e-08    6.158e-08   -9.575e-09  
   -1.17000     9.318e-09   -2.624e-08    6.053e-08   -9.318e-09  
   -1.16000     9.067e-09   -2.566e-08    5.949e-08   -9.067e-09  
   -1.15000     8.822e-09   -2.508e-08    5.846e-08   -8.822e-09  
   -1.14000     8.583e-09   -2.452e-08    5.744e-08   -8.583e-09  
   -1.13000     8.348e-09   -2.397e-08    5.643e-08   -8.348e-09  
   -1.12000     8.119e-09   -2.342e-08    5.544e-08   -8.119e-09  
   -1.11000     7.896e-09   -2.289e-08    5.445e-08   -7.896e-09  
   -1.10000     7.677e-09   -2.236e-08    5.348e-08   -7.677e-09  
   -1.09000     7.464e-09   -2.185e-08    5.252e-08   -7.464e-09  
   -1.08000     7.256e-09   -2.134e-08    5.158e-08   -7.256e-09  
   -1.07000     7.052e-09   -2.084e-08    5.064e-08   -7.052e-09  
   -1.06000     6.853e-09   -2.035e-08    4.972e-08   -6.853e-09  
   -1.05000     6.659e-09   -1.988e-08    4.880e-08   -6.659e-09  
   -1.04000     6.470e-09   -1.941e-08    4.790e-08   -6.470e-09  
   -1.03000     6.285e-09   -1.894e-08    4.701e-08   -6.285e-09  
   -1.02000     6.104e-09   -1.849e-08    4.614e-08   -6.104e-09  
   -1.01000     5.928e-09   -1.805e-08    4.527e-08   -5.928e-09  
   -1.00000     5.756e-09   -1.761e-08    4.441e-08   -5.756e-09  
   -0.99000     5.589e-09   -1.718e-08    4.357e-08   -5.589e-09  
   -0.98000     5.425e-09   -1.676e-08    4.274e-08   -5.425e-09  
   -0.97000     5.266e-09   -1.635e-08    4.191e-08   -5.266e-09  
   -0.96000     5.110e-09   -1.595e-08    4.110e-08   -5.110e-09  
   -0.95000     4.959e-09   -1.556e-08    4.030e-08   -4.959e-09  
   -0.94000     4.811e-09   -1.517e-08    3.951e-08   -4.811e-09  
   -0.93000     4.666e-09   -1.479e-08    3.874e-08   -4.666e-09  
   -0.92000     4.526e-09   -1.442e-08    3.797e-08   -4.526e-09  
   -0.91000     4.389e-09   -1.405e-08    3.721e-08   -4.389e-09  
   -0.90000     4.256e-09   -1.369e-08    3.647e-08   -4.256e-09  
   -0.89000     4.126e-09   -1.334e-08    3.573e-08   -4.126e-09  
   -0.88000     3.999e-09   -1.300e-08    3.501e-08   -3.999e-09  
   -0.87000     3.876e-09   -1.267e-08    3.429e-08   -3.876e-09  
   -0.86000     3.755e-09   -1.234e-08    3.359e-08   -3.755e-09  
   -0.85000     3.638e-09   -1.201e-08    3.289e-08   -3.638e-09  
   -0.84000     3.524e-09   -1.170e-08    3.221e-08   -3.524e-09  
   -0.83000     3.414e-09   -1.139e-08    3.154e-08   -3.414e-09  
   -0.82000     3.306e-09   -1.109e-08    3.087e-08   -3.306e-09  
   -0.81000     3.201e-09   -1.079e-08    3.022e-08   -3.201e-09  
   -0.80000     3.098e-09   -1.050e-08    2.957e-08   -3.098e-09  
   -0.79000     2.999e-09   -1.022e-08    2.894e-08   -2.999e-09  
   -0.78000     2.902e-09   -9.943e-09    2.832e-08   -2.902e-09  
   -0.77000     2.808e-09   -9.672e-09    2.770e-08   -2.808e-09  
   -0.76000     2.717e-09   -9.407e-09    2.710e-08   -2.717e-09  
   -0.75000     2.628e-09   -9.148e-09    2.650e-08   -2.628e-09  
   -0.74000     2.541e-09   -8.894e-09    2.592e-08   -2.541e-09  
   -0.73000     2.457e-09   -8.647e-09    2.534e-08   -2.457e-09  
   -0.72000     2.376e-09   -8.404e-09    2.477e-08   -2.376e-09  
   -0.71000     2.296e-09   -8.168e-09    2.422e-08   -2.296e-09  
   -0.70000     2.219e-09   -7.936e-09    2.367e-08   -2.219e-09  
   -0.69000     2.144e-09   -7.711e-09    2.313e-08   -2.144e-09  
   -0.68000     2.072e-09   -7.490e-09    2.260e-08   -2.072e-09  
   -0.67000     2.001e-09   -7.274e-09    2.208e-08   -2.001e-09  
   -0.66000     1.932e-09   -7.064e-09    2.156e-08   -1.932e-09  
   -0.65000     1.866e-09   -6.858e-09    2.106e-08   -1.866e-09  
   -0.64000     1.801e-09   -6.657e-09    2.056e-08   -1.801e-09  
   -0.63000     1.738e-09   -6.461e-09    2.008e-08   -1.738e-09  
   -0.62000     1.678e-09   -6.270e-09    1.960e-08   -1.678e-09  
   -0.61000     1.619e-09   -6.083e-09    1.913e-08   -1.619e-09  
   -0.60000     1.561e-09   -5.901e-09    1.867e-08   -1.561e-09  
   -0.59000     1.506e-09   -5.723e-09    1.821e-08   -1.506e-09  
   -0.58000     1.452e-09   -5.550e-09    1.777e-08   -1.452e-09  
   -0.57000     1.400e-09   -5.381e-09    1.733e-08   -1.400e-09  
   -0.56000     1.349e-09   -5.216e-09    1.690e-08   -1.349e-09  
   -0.55000     1.300e-09   -5.055e-09    1.648e-08   -1.300e-09  
   -0.54000     1.253e-09   -4.899e-09    1.607e-08   -1.253e-09  
   -0.53000     1.207e-09   -4.746e-09    1.566e-08   -1.207e-09  
   -0.52000     1.162e-09   -4.597e-09    1.527e-08   -1.162e-09  
   -0.51000     1.119e-09   -4.452e-09    1.488e-08   -1.119e-09  
   -0.50000     1.078e-09   -4.311e-09    1.449e-08   -1.078e-09  
   -0.49000     1.037e-09   -4.174e-09    1.412e-08   -1.037e-09  
   -0.48000     9.980e-10   -4.040e-09    1.375e-08   -9.980e-10  
   -0.47000     9.602e-10   -3.910e-09    1.339e-08   -9.602e-10  
   -0.46000     9.236e-10   -3.783e-09    1.304e-08   -9.236e-10  
   -0.45000     8.882e-10   -3.659e-09    1.269e-08   -8.882e-10  
   -0.44000     8.540e-10   -3.539e-09    1.235e-08   -8.540e-10  
   -0.43000     8.209e-10   -3.422e-09    1.202e-08   -8.209e-10  
   -0.42000     7.889e-10   -3.308e-09    1.169e-08   -7.889e-10  
   -0.41000     7.580e-10   -3.198e-09    1.137e-08   -7.580e-10  
   -0.40000     7.282e-10   -3.090e-09    1.106e-08   -7.282e-10  
   -0.39000     6.994e-10   -2.985e-09    1.076e-08   -6.994e-10  
   -0.38000     6.715e-10   -2.884e-09    1.046e-08   -6.715e-10  
   -0.37000     6.446e-10   -2.785e-09    1.017e-08   -6.446e-10  
   -0.36000     6.187e-10   -2.689e-09    9.886e-09   -6.187e-10  
   -0.35000     5.936e-10   -2.595e-09    9.609e-09   -5.936e-10  
   -0.34000     5.694e-10   -2.505e-09    9.340e-09   -5.694e-10  
   -0.33000     5.461e-10   -2.416e-09    9.079e-09   -5.461e-10  
   -0.32000     5.237e-10   -2.331e-09    8.827e-09   -5.237e-10  
   -0.31000     5.020e-10   -2.247e-09    8.585e-09   -5.020e-10  
   -0.30000     4.812e-10   -2.166e-09    8.353e-09   -4.812e-10  
   -0.29000     4.611e-10   -2.086e-09    8.135e-09   -4.611e-10  
   -0.28000     4.417e-10   -2.009e-09    7.931e-09   -4.417e-10  
   -0.27000     4.232e-10   -1.933e-09    7.747e-09   -4.232e-10  
   -0.26000     4.053e-10   -1.858e-09    7.586e-09   -4.053e-10  
   -0.25000     3.882e-10   -1.785e-09    7.455e-09   -3.882e-10  
   -0.24000     3.718e-10   -1.712e-09    7.364e-09   -3.718e-10  
   -0.23000     3.562e-10   -1.638e-09    7.324e-09   -3.562e-10  
   -0.22000     3.413e-10   -1.563e-09    7.354e-09   -3.413e-10  
   -0.21000     3.273e-10   -1.486e-09    7.477e-09   -3.273e-10  
   -0.20000     3.141e-10   -1.405e-09    7.725e-09   -3.141e-10  
   -0.19000     3.019e-10   -1.317e-09    8.144e-09   -3.019e-10  
   -0.18000     2.908e-10   -1.219e-09    8.794e-09   -2.908e-10  
   -0.17000     2.811e-10   -1.107e-09    9.760e-09   -2.811e-10  
   -0.16000     2.729e-10   -9.760e-10    1.116e-08   -2.729e-10  
   -0.15000     2.667e-10   -8.166e-10    1.315e-08   -2.667e-10  
   -0.14000     2.631e-10   -6.181e-10    1.594e-08   -2.631e-10  
   -0.13000     2.627e-10   -3.654e-10    1.985e-08   -2.627e-10  
   -0.12000     2.666e-10   -3.759e-11    2.527e-08   -2.666e-10  
   -0.11000     2.763e-10    3.940e-10    3.278e-08   -2.763e-10  
   -0.10000     2.937e-10    9.685e-10    4.315e-08   -2.937e-10  
 -9.0000e-02    3.216e-10    1.740e-09    5.746e-08   -3.216e-10  
 -8.0000e-02    3.635e-10    2.783e-09    7.715e-08   -3.635e-10  
 -7.0000e-02    4.248e-10    4.198e-09    1.043e-07   -4.248e-10  
 -6.0000e-02    5.124e-10    6.126e-09    1.416e-07   -5.124e-10  
 -5.0000e-02    6.360e-10    8.759e-09    1.928e-07   -6.360e-10  
 -4.0000e-02    8.089e-10    1.236e-08    2.633e-07   -8.089e-10  
 -3.0000e-02    1.049e-09    1.729e-08    3.601e-07   -1.049e-09  
 -2.0000e-02    1.383e-09    2.405e-08    4.931e-07   -1.383e-09  
 -1.0000e-02    1.843e-09    3.331e-08    6.757e-07   -1.843e-09  
    0.          2.477e-09    4.602e-08    9.264e-07   -2.477e-09  
  1.0000e-02    3.350e-09    6.343e-08    1.270e-06   -3.350e-09  
  2.0000e-02    4.550e-09    8.730e-08    1.742e-06   -4.550e-09  
  3.0000e-02    6.196e-09    1.200e-07    2.387e-06   -6.196e-09  
  4.0000e-02    8.453e-09    1.647e-07    3.268e-06   -8.453e-09  
  5.0000e-02    1.154e-08    2.257e-07    4.469e-06   -1.154e-08  
  6.0000e-02    1.576e-08    3.088e-07    6.102e-06   -1.576e-08  
  7.0000e-02    2.149e-08    4.215e-07    8.309e-06   -2.149e-08  
  8.0000e-02    2.928e-08    5.739e-07    1.128e-05   -2.928e-08  
  9.0000e-02    3.978e-08    7.783e-07    1.523e-05   -3.978e-08  
    0.10000     5.387e-08    1.050e-06    2.044e-05   -5.387e-08  
    0.11000     7.261e-08    1.409e-06    2.721e-05   -7.261e-08  
    0.12000     9.730e-08    1.874e-06    3.583e-05   -9.730e-08  
    0.13000     1.294e-07    2.469e-06    4.654e-05   -1.294e-07  
    0.14000     1.706e-07    3.212e-06    5.943e-05   -1.706e-07  
    0.15000     2.226e-07    4.120e-06    7.435e-05   -2.226e-07  
    0.16000     2.871e-07    5.200e-06    9.082e-05   -2.871e-07  
    0.17000     3.655e-07    6.446e-06    1.080e-04   -3.655e-07  
    0.18000     4.590e-07    7.841e-06    1.246e-04   -4.590e-07  
    0.19000     5.684e-07    9.352e-06    1.394e-04   -5.684e-07  
    0.20000     6.939e-07    1.094e-05    1.511e-04   -6.939e-07  
    0.21000     8.355e-07    1.255e-05    1.586e-04   -8.355e-07  
    0.22000     9.924e-07    1.415e-05    1.616e-04   -9.924e-07  
    0.23000     1.164e-06    1.570e-05    1.600e-04   -1.164e-06  
    0.24000     1.349e-06    1.716e-05    1.544e-04   -1.349e-06  
    0.25000     1.546e-06    1.851e-05    1.458e-04   -1.546e-06  
    0.26000     1.755e-06    1.974e-05    1.350e-04   -1.755e-06  
    0.27000     1.973e-06    2.084e-05    1.231e-04   -1.973e-06  
    0.28000     2.200e-06    2.183e-05    1.106e-04   -2.200e-06  
    0.29000     2.434e-06    2.269e-05    9.829e-05   -2.434e-06  
    0.30000     2.675e-06    2.344e-05    8.645e-05   -2.675e-06  
    0.31000     2.922e-06    2.410e-05    7.535e-05   -2.922e-06  
    0.32000     3.173e-06    2.465e-05    6.511e-05   -3.173e-06  
    0.33000     3.428e-06    2.513e-05    5.578e-05   -3.428e-06  
    0.34000     3.687e-06    2.552e-05    4.733e-05   -3.687e-06  
    0.35000     3.948e-06    2.585e-05    3.970e-05   -3.948e-06  
    0.36000     4.211e-06    2.612e-05    3.283e-05   -4.211e-06  
    0.37000     4.476e-06    2.633e-05    2.664e-05   -4.476e-06  
    0.38000     4.742e-06    2.649e-05    2.105e-05   -4.742e-06  
    0.39000     5.009e-06    2.660e-05    1.601e-05   -5.009e-06  
    0.40000     5.276e-06    2.668e-05    1.145e-05   -5.276e-06  
    0.41000     5.543e-06    2.671e-05    7.320e-06   -5.543e-06  
    0.42000     5.810e-06    2.671e-05    3.573e-06   -5.810e-06  
    0.43000     6.077e-06    2.668e-05    1.675e-07   -6.077e-06  
    0.44000     6.342e-06    2.663e-05   -2.933e-06   -6.342e-06  
    0.45000     6.606e-06    2.654e-05   -5.759e-06   -6.606e-06  
    0.46000     6.869e-06    2.644e-05   -8.340e-06   -6.869e-06  
    0.47000     7.131e-06    2.631e-05   -1.070e-05   -7.131e-06  
    0.48000     7.391e-06    2.616e-05   -1.286e-05   -7.391e-06  
    0.49000     7.649e-06    2.599e-05   -1.483e-05   -7.649e-06  
    0.50000     7.905e-06    2.581e-05   -1.664e-05   -7.905e-06  
    0.51000     8.159e-06    2.561e-05   -1.830e-05   -8.159e-06  
    0.52000     8.411e-06    2.540e-05   -1.982e-05   -8.411e-06  
    0.53000     8.660e-06    2.518e-05   -2.121e-05   -8.660e-06  
    0.54000     8.907e-06    2.494e-05   -2.249e-05   -8.907e-06  
    0.55000     9.152e-06    2.469e-05   -2.365e-05   -9.152e-06  
    0.56000     9.393e-06    2.443e-05   -2.472e-05   -9.393e-06  
    0.57000     9.632e-06    2.417e-05   -2.570e-05   -9.632e-06  
    0.58000     9.868e-06    2.389e-05   -2.658e-05   -9.868e-06  
    0.59000     1.010e-05    2.361e-05   -2.739e-05   -1.010e-05  
    0.60000     1.033e-05    2.333e-05   -2.812e-05   -1.033e-05  
    0.61000     1.056e-05    2.303e-05   -2.879e-05   -1.056e-05  
    0.62000     1.078e-05    2.273e-05   -2.938e-05   -1.078e-05  
    0.63000     1.100e-05    2.243e-05   -2.992e-05   -1.100e-05  
    0.64000     1.122e-05    2.212e-05   -3.039e-05   -1.122e-05  
    0.65000     1.144e-05    2.181e-05   -3.082e-05   -1.144e-05  
    0.66000     1.165e-05    2.149e-05   -3.119e-05   -1.165e-05  
    0.67000     1.186e-05    2.118e-05   -3.151e-05   -1.186e-05  
    0.68000     1.206e-05    2.086e-05   -3.179e-05   -1.206e-05  
    0.69000     1.227e-05    2.053e-05   -3.202e-05   -1.227e-05  
    0.70000     1.246e-05    2.021e-05   -3.222e-05   -1.246e-05  
    0.71000     1.266e-05    1.988e-05   -3.238e-05   -1.266e-05  
    0.72000     1.285e-05    1.956e-05   -3.250e-05   -1.285e-05  
    0.73000     1.304e-05    1.923e-05   -3.259e-05   -1.304e-05  
    0.74000     1.323e-05    1.891e-05   -3.264e-05   -1.323e-05  
    0.75000     1.341e-05    1.858e-05   -3.267e-05   -1.341e-05  
    0.76000     1.359e-05    1.825e-05   -3.266e-05   -1.359e-05  
    0.77000     1.376e-05    1.793e-05   -3.264e-05   -1.376e-05  
    0.78000     1.394e-05    1.760e-05   -3.258e-05   -1.394e-05  
    0.79000     1.411e-05    1.728e-05   -3.250e-05   -1.411e-05  
    0.80000     1.427e-05    1.695e-05   -3.240e-05   -1.427e-05  
    0.81000     1.444e-05    1.663e-05   -3.228e-05   -1.444e-05  
    0.82000     1.460e-05    1.631e-05   -3.214e-05   -1.460e-05  
    0.83000     1.475e-05    1.600e-05   -3.198e-05   -1.475e-05  
    0.84000     1.491e-05    1.568e-05   -3.181e-05   -1.491e-05  
    0.85000     1.506e-05    1.537e-05   -3.162e-05   -1.506e-05  
    0.86000     1.520e-05    1.505e-05   -3.141e-05   -1.520e-05  
    0.87000     1.535e-05    1.474e-05   -3.119e-05   -1.535e-05  
    0.88000     1.549e-05    1.444e-05   -3.095e-05   -1.549e-05  
    0.89000     1.563e-05    1.413e-05   -3.071e-05   -1.563e-05  
    0.90000     1.576e-05    1.383e-05   -3.045e-05   -1.576e-05  
    0.91000     1.590e-05    1.353e-05   -3.018e-05   -1.590e-05  
    0.92000     1.603e-05    1.324e-05   -2.990e-05   -1.603e-05  
    0.93000     1.615e-05    1.294e-05   -2.961e-05   -1.615e-05  
    0.94000     1.628e-05    1.265e-05   -2.932e-05   -1.628e-05  
    0.95000     1.640e-05    1.236e-05   -2.902e-05   -1.640e-05  
    0.96000     1.652e-05    1.208e-05   -2.871e-05   -1.652e-05  
    0.97000     1.663e-05    1.180e-05   -2.839e-05   -1.663e-05  
    0.98000     1.674e-05    1.152e-05   -2.807e-05   -1.674e-05  
    0.99000     1.685e-05    1.125e-05   -2.774e-05   -1.685e-05  
    1.00000     1.696e-05    1.098e-05   -2.741e-05   -1.696e-05  
    1.01000     1.706e-05    1.071e-05   -2.707e-05   -1.706e-05  
    1.02000     1.717e-05    1.045e-05   -2.674e-05   -1.717e-05  
    1.03000     1.727e-05    1.019e-05   -2.639e-05   -1.727e-05  
    1.04000     1.736e-05    9.929e-06   -2.605e-05   -1.736e-05  
    1.05000     1.746e-05    9.676e-06   -2.570e-05   -1.746e-05  
    1.06000     1.755e-05    9.426e-06   -2.535e-05   -1.755e-05  
    1.07000     1.764e-05    9.179e-06   -2.501e-05   -1.764e-05  
