Using: /cad/synopsys/Hspice/G-2012.06/hspice/linux/hspice noise.sp
 ****** HSPICE -- G-2012.06 32-BIT (May 27 2012) RHEL32 ******                  
  Copyright (C) 2012 Synopsys, Inc. All Rights Reserved.                        
  Unpublished-rights reserved under US copyright laws.
  This program is protected by law and is subject to the
  terms and conditions of the license agreement from Synopsys.
  Use of this program is your acceptance to be bound by the
  license agreement. HSPICE is the trademark of Synopsys, Inc.
  Input File: noise.sp                                                          
  Command line options: noise.sp
 lic: No 'setenv LM_LICENSE_FILE' in current environment' 
 lic:  
 lic: FLEXlm: v10.8 
 lic: USER:   agarwalh             HOSTNAME: xcel1.vlsi.iitk.ac.in 
 lic: HOSTID: 0008a1953eea         PID:      1597 
 lic: Using FLEXlm license file: 
 lic: 27000@xcel0 
 lic: Checkout 1 hspice 
 lic: License/Maintenance for hspice will expire on 15-jun-2013/2011.09 
 lic: 1(in_use)/5(total) FLOATING license(s) on SERVER xcel0 
 lic:   
 Init: read install configuration file: /cad/synopsys/Hspice/G-2012.06/hspice/meta.cfg


 --------------------------------------------------------
|                                                        |
|          Synopsys Unified Verilog-A (pVA v2.0)         |
|                                                        |
|           Machine Name: xcel1.vlsi.iitk.ac.in          |
| Copyright (c) 2011 Synopsys Inc., All Rights Reserved. |
|                                                        |
 --------------------------------------------------------

libepva built by pvamgr synmake_pva_build  on Tue May  1 20:03:16 PDT 2012
HSP_HOME:   /cad/synopsys/Hspice/G-2012.06/hspice
HSP_ARCH:   linux
HSP_GCC :   /cad/synopsys/Hspice/G-2012.06/hspice/GNU/amd64/gcc-4.5.2-static/bin/gcc -m32 
HSP_GCC_VER:   4.5.2
Working-Dir: /users/phd/agarwalh/synopsys_designs/BSIM6/QA/BSIM6 Release/Release_5_May
Args:        -p hsp -t spi -f noise.pvadir/pvaHDL.lis -o noise.pvadir 


Begin of pVA compiling on Sun May  5 21:48:10 2013

Parsing './bsim6.va'
Parsing include file '/cad/synopsys/Hspice/G-2012.06/hspice/include/constants.vams'
Parsing include file '/cad/synopsys/Hspice/G-2012.06/hspice/include/disciplines.vams'

End of pVA compiling on Sun May  5 21:48:10 2013


End of build pVA DB on Sun May  5 21:48:10 2013

*pvaI* Module (bsim6): 4 unexpanded port, 0 init, 2191 behav, 65 contrib, 43/2272 expr(s)
*pvaI* Resizing DB size for v count = 1
*pvaI*        Has DIS (SB), 3 afCount
*pvaI*        0 const-G and 0 const-C, Has switch branch.
*pvaI* Module (bsim6): generated 7 flow node(s) during compilation.

End of pVA genC on Sun May  5 21:48:13 2013

*pvaI* #### Total 316 line-size(s), 43 expr(s), 65 contr(s), 0 init(s), 2191 behav(s), 4 port(s)

Generating noise.pvadir/pvaRTL_linux.so


End of submitting pVA noise.pvadir/pvaRTL.mak on Sun May  5 21:48:22 2013


End of pVA elaboration on Sun May  5 21:48:22 2013

 Loading pVA library noise.pvadir/pvaRTL_linux.so...
1****** HSPICE -- G-2012.06 32-BIT (May 27 2012) RHEL32 ******                  
 ******  
 *samle netlist for bsim6.0

  ******  circuit name directory
 circuit number to circuit name directory
   number circuitname                     definition         multiplier
        0 main circuit
        1 x1.                             bsim6(va)          1.00 
*pvaI* Creating Verilog-A module 'bsim6' for X1
  
      
 *****************************************************************
 ******  option summary
 ******
 runlvl  = 3         bypass  = 2         
  Opening plot unit= 15
 file=noise.pa0                                                                

1****** HSPICE -- G-2012.06 32-BIT (May 27 2012) RHEL32 ******                  
 ******  
 *samle netlist for bsim6.0

  ******  operating point information tnom=  25.000 temp=  27.000 *****
 ***** operating point status is all       simulation time is     0.     
    node    =voltage      node    =voltage      node    =voltage

 +0:1       =   1.0000  0:2       =   0.      0:bulk    =   0.     
 +0:drain   =   1.0000  0:gate    =   0.5000 


 **** voltage sources

 subckt                                   
 element  0:vbs      0:vds      0:vgs     
  volts      0.         1.0000     0.5000 
  current  8.881e-10 -3.332e-05    0.     
  power      0.       3.332e-05    0.     

     total voltage source power dissipation=  3.332e-05       watts



 **** resistors

 subckt             
 element  0:rload   
  r value    1.0000 
  v drop     0.     
  current    0.     
  power      0.     


 **** inductors

 subckt             
 element  0:lbias   
  l value  1.000e-03
  v drop     0.     
  current    0.     
  power      0.     

1****** HSPICE -- G-2012.06 32-BIT (May 27 2012) RHEL32 ******                  
 ******  
 *samle netlist for bsim6.0

  ******  noise analysis tnom=  25.000 temp=  27.000 *****

     frequency = 1.000e+03      hz




 **** resistor squared noise voltages (sq v/hz)




 element     0:rload
       rs    0.         
      1/f    0.         
    total    0.         
       rx    1.0126     




 **** total output noise voltage         = 9.109e-24       sq v/hz
                                         = 3.018e-12       v/rt hz
      transfer function value:
        v(drain)/vgs                     = 1.752e-04      
      equivalent input noise at vgs                           
                                         = 1.723e-08       /rt hz



 **** the results of the sqrt of integral (v**2 / freq)
      from fstart upto  1.000e+03      hz. using more freq points
      results in more accurate total noise values.

 **** total output noise voltage   =    0.            volts
 **** total equivalent input noise =    0.           



1****** HSPICE -- G-2012.06 32-BIT (May 27 2012) RHEL32 ******                  
 ******  
 *samle netlist for bsim6.0

  ******  noise analysis tnom=  25.000 temp=  27.000 *****

     frequency = 1.232e+03      hz




 **** resistor squared noise voltages (sq v/hz)




 element     0:rload
       rs    0.         
      1/f    0.         
    total    0.         
       rx    1.0083     




 **** total output noise voltage         = 7.628e-24       sq v/hz
                                         = 2.762e-12       v/rt hz
      transfer function value:
        v(drain)/vgs                     = 1.737e-04      
      equivalent input noise at vgs                           
                                         = 1.590e-08       /rt hz



 **** the results of the sqrt of integral (v**2 / freq)
      from fstart upto  1.232e+03      hz. using more freq points
      results in more accurate total noise values.

 **** total output noise voltage   =  4.414e-11       volts
 **** total equivalent input noise =  2.530e-07      



1****** HSPICE -- G-2012.06 32-BIT (May 27 2012) RHEL32 ******                  
 ******  
 *samle netlist for bsim6.0

  ******  noise analysis tnom=  25.000 temp=  27.000 *****

     frequency = 1.519e+03      hz




 **** resistor squared noise voltages (sq v/hz)




 element     0:rload
       rs    0.         
      1/f    0.         
    total    0.         
       rx    1.0055     




 **** total output noise voltage         = 6.477e-24       sq v/hz
                                         = 2.545e-12       v/rt hz
      transfer function value:
        v(drain)/vgs                     = 1.727e-04      
      equivalent input noise at vgs                           
                                         = 1.474e-08       /rt hz



 **** the results of the sqrt of integral (v**2 / freq)
      from fstart upto  1.519e+03      hz. using more freq points
      results in more accurate total noise values.

 **** total output noise voltage   =  6.303e-11       volts
 **** total equivalent input noise =  3.626e-07      



1****** HSPICE -- G-2012.06 32-BIT (May 27 2012) RHEL32 ******                  
 ******  
 *samle netlist for bsim6.0

  ******  noise analysis tnom=  25.000 temp=  27.000 *****

     frequency = 1.873e+03      hz




 **** resistor squared noise voltages (sq v/hz)




 element     0:rload
       rs    0.         
      1/f    0.         
    total    0.         
       rx    1.0036     




 **** total output noise voltage         = 5.571e-24       sq v/hz
                                         = 2.360e-12       v/rt hz
      transfer function value:
        v(drain)/vgs                     = 1.721e-04      
      equivalent input noise at vgs                           
                                         = 1.372e-08       /rt hz



 **** the results of the sqrt of integral (v**2 / freq)
      from fstart upto  1.873e+03      hz. using more freq points
      results in more accurate total noise values.

 **** total output noise voltage   =  7.813e-11       volts
 **** total equivalent input noise =  4.508e-07      



1****** HSPICE -- G-2012.06 32-BIT (May 27 2012) RHEL32 ******                  
 ******  
 *samle netlist for bsim6.0

  ******  noise analysis tnom=  25.000 temp=  27.000 *****

     frequency = 2.310e+03      hz




 **** resistor squared noise voltages (sq v/hz)




 element     0:rload
       rs    0.         
      1/f    0.         
    total    0.         
       rx    1.0024     




 **** total output noise voltage         = 4.851e-24       sq v/hz
                                         = 2.203e-12       v/rt hz
      transfer function value:
        v(drain)/vgs                     = 1.716e-04      
      equivalent input noise at vgs                           
                                         = 1.283e-08       /rt hz



 **** the results of the sqrt of integral (v**2 / freq)
      from fstart upto  2.310e+03      hz. using more freq points
      results in more accurate total noise values.

 **** total output noise voltage   =  9.153e-11       volts
 **** total equivalent input noise =  5.293e-07      



1****** HSPICE -- G-2012.06 32-BIT (May 27 2012) RHEL32 ******                  
 ******  
 *samle netlist for bsim6.0

  ******  noise analysis tnom=  25.000 temp=  27.000 *****

     frequency = 2.848e+03      hz




 **** resistor squared noise voltages (sq v/hz)




 element     0:rload
       rs    0.         
      1/f    0.         
    total    0.         
       rx    1.0016     




 **** total output noise voltage         = 4.276e-24       sq v/hz
                                         = 2.068e-12       v/rt hz
      transfer function value:
        v(drain)/vgs                     = 1.714e-04      
      equivalent input noise at vgs                           
                                         = 1.207e-08       /rt hz



 **** the results of the sqrt of integral (v**2 / freq)
      from fstart upto  2.848e+03      hz. using more freq points
      results in more accurate total noise values.

 **** total output noise voltage   =  1.041e-10       volts
 **** total equivalent input noise =  6.030e-07      



1****** HSPICE -- G-2012.06 32-BIT (May 27 2012) RHEL32 ******                  
 ******  
 *samle netlist for bsim6.0

  ******  noise analysis tnom=  25.000 temp=  27.000 *****

     frequency = 3.511e+03      hz




 **** resistor squared noise voltages (sq v/hz)




 element     0:rload
       rs    0.         
      1/f    0.         
    total    0.         
       rx    1.0010     




 **** total output noise voltage         = 3.813e-24       sq v/hz
                                         = 1.953e-12       v/rt hz
      transfer function value:
        v(drain)/vgs                     = 1.712e-04      
      equivalent input noise at vgs                           
                                         = 1.141e-08       /rt hz



 **** the results of the sqrt of integral (v**2 / freq)
      from fstart upto  3.511e+03      hz. using more freq points
      results in more accurate total noise values.

 **** total output noise voltage   =  1.163e-10       volts
 **** total equivalent input noise =  6.745e-07      



1****** HSPICE -- G-2012.06 32-BIT (May 27 2012) RHEL32 ******                  
 ******  
 *samle netlist for bsim6.0

  ******  noise analysis tnom=  25.000 temp=  27.000 *****

     frequency = 4.328e+03      hz




 **** resistor squared noise voltages (sq v/hz)




 element     0:rload
       rs    0.         
      1/f    0.         
    total    0.         
       rx    1.0007     




 **** total output noise voltage         = 3.441e-24       sq v/hz
                                         = 1.855e-12       v/rt hz
      transfer function value:
        v(drain)/vgs                     = 1.711e-04      
      equivalent input noise at vgs                           
                                         = 1.084e-08       /rt hz



 **** the results of the sqrt of integral (v**2 / freq)
      from fstart upto  4.328e+03      hz. using more freq points
      results in more accurate total noise values.

 **** total output noise voltage   =  1.284e-10       volts
 **** total equivalent input noise =  7.458e-07      



1****** HSPICE -- G-2012.06 32-BIT (May 27 2012) RHEL32 ******                  
 ******  
 *samle netlist for bsim6.0

  ******  noise analysis tnom=  25.000 temp=  27.000 *****

     frequency = 5.336e+03      hz




 **** resistor squared noise voltages (sq v/hz)




 element     0:rload
       rs    0.         
      1/f    0.         
    total    0.         
       rx    1.0004     




 **** total output noise voltage         = 3.140e-24       sq v/hz
                                         = 1.772e-12       v/rt hz
      transfer function value:
        v(drain)/vgs                     = 1.710e-04      
      equivalent input noise at vgs                           
                                         = 1.036e-08       /rt hz



 **** the results of the sqrt of integral (v**2 / freq)
      from fstart upto  5.336e+03      hz. using more freq points
      results in more accurate total noise values.

 **** total output noise voltage   =  1.407e-10       volts
 **** total equivalent input noise =  8.183e-07      



1****** HSPICE -- G-2012.06 32-BIT (May 27 2012) RHEL32 ******                  
 ******  
 *samle netlist for bsim6.0

  ******  noise analysis tnom=  25.000 temp=  27.000 *****

     frequency = 6.579e+03      hz




 **** resistor squared noise voltages (sq v/hz)




 element     0:rload
       rs    0.         
      1/f    0.         
    total    0.         
       rx    1.0003     




 **** total output noise voltage         = 2.897e-24       sq v/hz
                                         = 1.702e-12       v/rt hz
      transfer function value:
        v(drain)/vgs                     = 1.709e-04      
      equivalent input noise at vgs                           
                                         = 9.958e-09       /rt hz



 **** the results of the sqrt of integral (v**2 / freq)
      from fstart upto  6.579e+03      hz. using more freq points
      results in more accurate total noise values.

 **** total output noise voltage   =  1.535e-10       volts
 **** total equivalent input noise =  8.933e-07      



1****** HSPICE -- G-2012.06 32-BIT (May 27 2012) RHEL32 ******                  
 ******  
 *samle netlist for bsim6.0

  ******  noise analysis tnom=  25.000 temp=  27.000 *****

     frequency = 8.111e+03      hz




 **** resistor squared noise voltages (sq v/hz)




 element     0:rload
       rs    0.         
      1/f    0.         
    total    0.         
       rx    1.0002     




 **** total output noise voltage         = 2.701e-24       sq v/hz
                                         = 1.643e-12       v/rt hz
      transfer function value:
        v(drain)/vgs                     = 1.709e-04      
      equivalent input noise at vgs                           
                                         = 9.616e-09       /rt hz



 **** the results of the sqrt of integral (v**2 / freq)
      from fstart upto  8.111e+03      hz. using more freq points
      results in more accurate total noise values.

 **** total output noise voltage   =  1.668e-10       volts
 **** total equivalent input noise =  9.720e-07      



1****** HSPICE -- G-2012.06 32-BIT (May 27 2012) RHEL32 ******                  
 ******  
 *samle netlist for bsim6.0

  ******  noise analysis tnom=  25.000 temp=  27.000 *****

     frequency = 1.000e+04      hz




 **** resistor squared noise voltages (sq v/hz)




 element     0:rload
       rs    0.         
      1/f    0.         
    total    0.         
       rx    1.0001     




 **** total output noise voltage         = 2.541e-24       sq v/hz
                                         = 1.594e-12       v/rt hz
      transfer function value:
        v(drain)/vgs                     = 1.709e-04      
      equivalent input noise at vgs                           
                                         = 9.329e-09       /rt hz



 **** the results of the sqrt of integral (v**2 / freq)
      from fstart upto  1.000e+04      hz. using more freq points
      results in more accurate total noise values.

 **** total output noise voltage   =  1.811e-10       volts
 **** total equivalent input noise =  1.056e-06      



1****** HSPICE -- G-2012.06 32-BIT (May 27 2012) RHEL32 ******                  
 ******  
 *samle netlist for bsim6.0

  ******  noise analysis tnom=  25.000 temp=  27.000 *****

     frequency = 1.232e+04      hz




 **** resistor squared noise voltages (sq v/hz)




 element     0:rload
       rs    0.         
      1/f    0.         
    total    0.         
       rx    1.0001     




 **** total output noise voltage         = 2.412e-24       sq v/hz
                                         = 1.553e-12       v/rt hz
      transfer function value:
        v(drain)/vgs                     = 1.709e-04      
      equivalent input noise at vgs                           
                                         = 9.090e-09       /rt hz



 **** the results of the sqrt of integral (v**2 / freq)
      from fstart upto  1.232e+04      hz. using more freq points
      results in more accurate total noise values.

 **** total output noise voltage   =  1.964e-10       volts
 **** total equivalent input noise =  1.145e-06      



1****** HSPICE -- G-2012.06 32-BIT (May 27 2012) RHEL32 ******                  
 ******  
 *samle netlist for bsim6.0

  ******  noise analysis tnom=  25.000 temp=  27.000 *****

     frequency = 1.519e+04      hz




 **** resistor squared noise voltages (sq v/hz)




 element     0:rload
       rs    0.         
      1/f    0.         
    total    0.         
       rx    1.0001     




 **** total output noise voltage         = 2.308e-24       sq v/hz
                                         = 1.519e-12       v/rt hz
      transfer function value:
        v(drain)/vgs                     = 1.709e-04      
      equivalent input noise at vgs                           
                                         = 8.891e-09       /rt hz



 **** the results of the sqrt of integral (v**2 / freq)
      from fstart upto  1.519e+04      hz. using more freq points
      results in more accurate total noise values.

 **** total output noise voltage   =  2.129e-10       volts
 **** total equivalent input noise =  1.243e-06      



1****** HSPICE -- G-2012.06 32-BIT (May 27 2012) RHEL32 ******                  
 ******  
 *samle netlist for bsim6.0

  ******  noise analysis tnom=  25.000 temp=  27.000 *****

     frequency = 1.873e+04      hz




 **** resistor squared noise voltages (sq v/hz)




 element     0:rload
       rs    0.         
      1/f    0.         
    total    0.         
       rx    1.0000     




 **** total output noise voltage         = 2.223e-24       sq v/hz
                                         = 1.491e-12       v/rt hz
      transfer function value:
        v(drain)/vgs                     = 1.708e-04      
